/vout X,/vout Y,/dac_out X,/dac_out Y,/I5/PM0/D X,/I5/PM0/D Y,/I5/vbody X,/I5/vbody Y
0,0.9978444984753979,0,0,0,-8.303646494649128e-19,0,0.9978384661277189
1.861670655287675e-12,0.9982252492562511,1.861670655287675e-12,0,1.861670655287675e-12,-2.618726890408223e-08,1.861670655287675e-12,0.9982599840045774
2.689899595300665e-12,0.998370421803104,2.689899595300665e-12,0,2.689899595300665e-12,-2.790503145939396e-08,2.689899595300665e-12,0.9984361011736455
4.346357475326644e-12,0.9986116592521731,4.346357475326644e-12,0,4.346357475326644e-12,-2.985078020285093e-08,4.346357475326644e-12,0.9987607891149246
6.946417860969938e-12,0.9988719156029908,6.946417860969938e-12,0,6.946417860969938e-12,-3.049376460009628e-08,6.946417860969938e-12,0.9991974297451999
9.456597707562123e-12,0.9990245342510048,9.456597707562123e-12,0,9.456597707562123e-12,-2.971592167580242e-08,9.456597707562123e-12,0.999554880826007
1.141004413796617e-11,0.9990974606070971,1.141004413796617e-11,0,1.141004413796617e-11,-2.856887281786193e-08,1.141004413796617e-11,0.9998009245393054
1.346184755070337e-11,0.9991470249677755,1.346184755070337e-11,0,1.346184755070337e-11,-2.716691516808543e-08,1.346184755070337e-11,1.000037832617719
1.572429456376151e-11,0.9991817725069655,1.572429456376151e-11,0,1.572429456376151e-11,-2.558484809582075e-08,1.572429456376151e-11,1.000280112313505
1.835006702970829e-11,0.9992063021283298,1.835006702970829e-11,0,1.835006702970829e-11,-2.38305821216961e-08,1.835006702970829e-11,1.000542028395965
2.153358091320425e-11,0.9992229612163349,2.153358091320425e-11,0,2.153358091320425e-11,-2.190420216911343e-08,2.153358091320425e-11,1.000837153866023
2.54682466577685e-11,0.9992329492976257,2.54682466577685e-11,0,2.54682466577685e-11,-1.984360963002244e-08,2.54682466577685e-11,1.001173355779891
3.047207410790864e-11,0.9992375643491714,3.047207410790864e-11,0,3.047207410790864e-11,-1.758574526595892e-08,3.047207410790864e-11,1.001562024160245
3.687603379560839e-11,0.9992378645217396,3.687603379560839e-11,0,3.687603379560839e-11,-1.522629855861016e-08,3.687603379560839e-11,1.00200350326651
4.535595533620581e-11,0.9992347435451926,4.535595533620581e-11,0,4.535595533620581e-11,-1.267517662620471e-08,4.535595533620581e-11,1.002502523598593
5.6977707474763e-11,0.9992283924109051,5.6977707474763e-11,0,5.6977707474763e-11,-9.773944078531994e-09,5.6977707474763e-11,1.003045777539078
7.17313632597048e-11,0.9992189031140922,7.17313632597048e-11,0,7.17313632597048e-11,-6.52484152133654e-09,7.17313632597048e-11,1.003520346230271
8.678383056607631e-11,0.9992074585881967,8.678383056607631e-11,0,8.678383056607631e-11,-3.242701435926784e-09,8.678383056607631e-11,1.00375795168577
1.034234864622864e-10,0.9991908717516681,1.034234864622864e-10,0,1.034234864622864e-10,8.14718741249195e-10,1.034234864622864e-10,1.003701464029087
1.225297235555131e-10,0.9991629551002997,1.225297235555131e-10,0,1.225297235555131e-10,6.581292087320688e-09,1.225297235555131e-10,1.003133072933479
1.452633938076633e-10,0.9991124209852091,1.452633938076633e-10,0,1.452633938076633e-10,1.548372762384445e-08,1.452633938076633e-10,1.00155454984644
1.744929350867299e-10,0.9990059150119662,1.744929350867299e-10,0,1.744929350867299e-10,3.136902327153912e-08,1.744929350867299e-10,0.9975275648421587
2.066957333388573e-10,0.998820985100157,2.066957333388573e-10,0,2.066957333388573e-10,5.525956075310028e-08,2.066957333388573e-10,0.9895390691623523
2.433216696857969e-10,0.9985317596057401,2.433216696857969e-10,0,2.433216696857969e-10,8.812640240892421e-08,2.433216696857969e-10,0.9746685265943712
2.605200502924741e-10,0.998368389465622,2.605200502924741e-10,0,2.605200502924741e-10,1.045787692586748e-07,2.605200502924741e-10,0.9652736320285061
2.624361742455593e-10,0.9983486592774112,2.624361742455593e-10,0,2.624361742455593e-10,1.064556078700565e-07,2.624361742455593e-10,0.9641269402208287
2.630998326956333e-10,0.998341783282773,2.630998326956333e-10,0,2.630998326956333e-10,1.070866310570876e-07,2.630998326956333e-10,0.9637248191402235
2.644271495957812e-10,0.9983280414502972,2.644271495957812e-10,0,2.644271495957812e-10,1.083396045786378e-07,2.644271495957812e-10,0.9629124538581321
2.670817833960772e-10,0.9983006071185876,2.670817833960772e-10,0,2.670817833960772e-10,1.108357278395558e-07,2.670817833960772e-10,0.961254651874767
2.723910509966691e-10,0.9982457140505776,2.723910509966691e-10,0,2.723910509966691e-10,1.157067945277868e-07,2.723910509966691e-10,0.9578045111827064
2.83009586197853e-10,0.9981350021718844,2.83009586197853e-10,0,2.83009586197853e-10,1.253846879408232e-07,2.83009586197853e-10,0.950350073635244
3.042466566002208e-10,0.99790795711318,3.042466566002208e-10,0,3.042466566002208e-10,1.432333918176769e-07,3.042466566002208e-10,0.933065727736783
3.342389652252529e-10,0.9975642837810197,3.342389652252529e-10,0,3.342389652252529e-10,1.63249068418449e-07,3.342389652252529e-10,0.9024313337715207
3.601144516975519e-10,0.9972350547567214,3.601144516975519e-10,0,3.601144516975519e-10,1.787846546929565e-07,3.601144516975519e-10,0.8689961335716858
3.856474669325347e-10,0.9968835709319789,3.856474669325347e-10,0,3.856474669325347e-10,2.052431119117966e-07,3.856474669325347e-10,0.8286936941088738
4.195330882751005e-10,0.9963736706509996,4.195330882751005e-10,0,4.195330882751005e-10,2.614452497175865e-07,4.195330882751005e-10,0.7628411936221721
4.473249875668179e-10,0.9959648266598224,4.473249875668179e-10,0,4.473249875668179e-10,3.161869725255328e-07,4.473249875668179e-10,0.6994168463957318
4.69781063014611e-10,0.99571276523603,4.69781063014611e-10,0,4.69781063014611e-10,3.768141506359915e-07,4.69781063014611e-10,0.6445504415798882
4.864481009470837e-10,0.9955747139746672,4.864481009470837e-10,0,4.864481009470837e-10,5.037491881230385e-07,4.864481009470837e-10,0.603384974182395
4.988957744090934e-10,0.9954666825570306,4.988957744090934e-10,0,4.988957744090934e-10,7.79275192853058e-07,4.988957744090934e-10,0.5732527647642345
5.117453841022202e-10,0.995279973345882,5.117453841022202e-10,0,5.117453841022202e-10,1.503134143662688e-06,5.117453841022202e-10,0.5437384520438999
5.212169454830762e-10,0.995029118128511,5.212169454830762e-10,0,5.212169454830762e-10,2.58748219830508e-06,5.212169454830762e-10,0.5238148661217089
5.287619614025117e-10,0.994717331894387,5.287619614025117e-10,0,5.287619614025117e-10,3.921777097414033e-06,5.287619614025117e-10,0.5096331946514113
5.358608775556461e-10,0.9943111465924991,5.358608775556461e-10,0,5.358608775556461e-10,5.551552803419081e-06,5.358608775556461e-10,0.4980883581155433
5.438863749822505e-10,0.9937254702903413,5.438863749822505e-10,0,5.438863749822505e-10,7.659522154494697e-06,5.438863749822505e-10,0.4874303456450451
5.524487475678221e-10,0.9929977744061093,5.524487475678221e-10,0,5.524487475678221e-10,9.908729070128224e-06,5.524487475678221e-10,0.4787729316735332
5.594872596922077e-10,0.9923640044704345,5.594872596922077e-10,0,5.594872596922077e-10,1.155862051056827e-05,5.594872596922077e-10,0.4734472588997428
5.660059096668177e-10,0.9917774865528571,5.660059096668177e-10,0,5.660059096668177e-10,1.286631098224452e-05,5.660059096668177e-10,0.469624509123627
5.730882073872588e-10,0.9911573406905921,5.730882073872588e-10,0,5.730882073872588e-10,1.407116463779727e-05,5.730882073872588e-10,0.4663287617330292
5.820300282327213e-10,0.9904066855632745,5.820300282327213e-10,0,5.820300282327213e-10,1.535335087996081e-05,5.820300282327213e-10,0.4630131330548748
5.915638970462406e-10,0.9896460916765755,5.915638970462406e-10,0,5.915638970462406e-10,1.650830301959968e-05,5.915638970462406e-10,0.4601826623102673
6.006756037037381e-10,0.9889574403023303,6.006756037037381e-10,0,6.006756037037381e-10,1.746107408477117e-05,6.006756037037381e-10,0.45797424628107
6.087709477513564e-10,0.9883770422958863,6.087709477513564e-10,0,6.087709477513564e-10,1.820915650677018e-05,6.087709477513564e-10,0.4563428812514727
6.162593039114503e-10,0.9878651950964422,6.162593039114503e-10,0,6.162593039114503e-10,1.88322973684495e-05,6.162593039114503e-10,0.4550728038464791
6.236570126782125e-10,0.9873789719568716,6.236570126782125e-10,0,6.236570126782125e-10,1.939786628697223e-05,6.236570126782125e-10,0.4540114795499793
6.316920467921401e-10,0.9868624672774876,6.316920467921401e-10,0,6.316920467921401e-10,1.998598742213052e-05,6.316920467921401e-10,0.4530321691587081
6.426433356558675e-10,0.9861461007119269,6.426433356558675e-10,0,6.426433356558675e-10,2.08264425506954e-05,6.426433356558675e-10,0.4518841935295466
6.489237357512083e-10,0.9856987272744566,6.489237357512083e-10,0,6.489237357512083e-10,2.143322160338115e-05,6.489237357512083e-10,0.4512668341360843
6.552491730602511e-10,0.9851824666045248,6.552491730602511e-10,0,6.552491730602511e-10,2.219561882006722e-05,6.552491730602511e-10,0.4505587780827565
6.606405467668719e-10,0.9846588375165511,6.606405467668719e-10,0,6.606405467668719e-10,2.295454470341491e-05,6.606405467668719e-10,0.4496985563366204
6.64557703114206e-10,0.9842358013794964,6.64557703114206e-10,0,6.64557703114206e-10,2.350719901954858e-05,6.64557703114206e-10,0.4488725056792707
6.683792928843774e-10,0.9838049794089451,6.683792928843774e-10,0,6.683792928843774e-10,2.408021365186134e-05,6.683792928843774e-10,0.4479666633717829
6.729060705124723e-10,0.9833009575332675,6.729060705124723e-10,0,6.729060705124723e-10,2.473254397070815e-05,6.729060705124723e-10,0.4469076704864431
6.77152864307186e-10,0.9828571406877638,6.77152864307186e-10,0,6.77152864307186e-10,2.525919580571991e-05,6.77152864307186e-10,0.4460284269982723
6.818533974944911e-10,0.9824153892632365,6.818533974944911e-10,0,6.818533974944911e-10,2.571202645580273e-05,6.818533974944911e-10,0.4452454448207743
6.871325422730556e-10,0.981987115981299,6.871325422730556e-10,0,6.871325422730556e-10,2.606658269303955e-05,6.871325422730556e-10,0.4446190407298964
6.928901588415954e-10,0.9815975323316172,6.928901588415954e-10,0,6.928901588415954e-10,2.629629063837724e-05,6.928901588415954e-10,0.4442148880592161
6.993460713461185e-10,0.9812458356433345,6.993460713461185e-10,0,6.993460713461185e-10,2.639805187758487e-05,6.993460713461185e-10,0.4440528325641363
7.061103687796797e-10,0.9809620599682057,7.061103687796797e-10,0,7.061103687796797e-10,2.636471153260898e-05,7.061103687796797e-10,0.4441549193611245
7.133930160675791e-10,0.9807432730714948,7.133930160675791e-10,0,7.133930160675791e-10,2.619798587038046e-05,7.133930160675791e-10,0.444526943838204
7.216909578729316e-10,0.980594804739787,7.216909578729316e-10,0,7.216909578729316e-10,2.586557261641831e-05,7.216909578729316e-10,0.4452458031002531
7.314089044888251e-10,0.980547670703479,7.314089044888251e-10,0,7.314089044888251e-10,2.530331345444912e-05,7.314089044888251e-10,0.4464634662664819
7.424812094207869e-10,0.9806448126808363,7.424812094207869e-10,0,7.424812094207869e-10,2.445941897141446e-05,7.424812094207869e-10,0.4483270088696491
7.538269763148786e-10,0.980887739960247,7.538269763148786e-10,0,7.538269763148786e-10,2.34030950078634e-05,7.538269763148786e-10,0.4507409385679257
7.650124593685895e-10,0.9812422342938782,7.650124593685895e-10,0,7.650124593685895e-10,2.22123268138474e-05,7.650124593685895e-10,0.4535906275093842
7.762932708809647e-10,0.9816855837476027,7.762932708809647e-10,0,7.762932708809647e-10,2.09059315965821e-05,7.762932708809647e-10,0.4568983826359629
7.878341223776012e-10,0.9822063594798189,7.878341223776012e-10,0,7.878341223776012e-10,1.950875614656387e-05,7.878341223776012e-10,0.4606928036057502
8.010031916997092e-10,0.9828481239166064,8.010031916997092e-10,0,8.010031916997092e-10,1.789533916760216e-05,8.010031916997092e-10,0.465467557511452
8.140458170102635e-10,0.9835082172154627,8.140458170102635e-10,0,8.140458170102635e-10,1.633048540183192e-05,8.140458170102635e-10,0.4706028424570474
8.291648179091298e-10,0.9842677549884865,8.291648179091298e-10,0,8.291648179091298e-10,1.461200490289844e-05,8.291648179091298e-10,0.4769700128824695
8.448476667297587e-10,0.9850238863440928,8.448476667297587e-10,0,8.448476667297587e-10,1.298169581952552e-05,8.448476667297587e-10,0.4839451845318467
8.630637146020254e-10,0.9858381666226255,8.630637146020254e-10,0,8.630637146020254e-10,1.131387049995792e-05,8.630637146020254e-10,0.492380403124237
8.810240870808673e-10,0.9865580154840684,8.810240870808673e-10,0,8.810240870808673e-10,9.910928949089892e-06,8.810240870808673e-10,0.5008992810417933
8.995122790000428e-10,0.9872088562348815,8.995122790000428e-10,0,8.995122790000428e-10,8.69980545871789e-06,8.995122790000428e-10,0.5097243681053552
9.172723585067217e-10,0.9877562550344748,9.172723585067217e-10,0,9.172723585067217e-10,7.731091707483378e-06,9.172723585067217e-10,0.5181303852869965
9.346040663151682e-10,0.9882230240647011,9.346040663151682e-10,0,9.346040663151682e-10,6.939112421670508e-06,9.346040663151682e-10,0.5261698498433391
9.540686242600681e-10,0.9886789580416547,9.540686242600681e-10,0,9.540686242600681e-10,6.195808318313158e-06,9.540686242600681e-10,0.5349236356991571
9.744270530827375e-10,0.9890913091064992,9.744270530827375e-10,0,9.744270530827375e-10,5.548694827485146e-06,9.744270530827375e-10,0.5437090746153097
9.872135265413688e-10,0.9893213572304078,9.872135265413688e-10,0,9.872135265413688e-10,5.197041884815561e-06,9.872135265413688e-10,0.549014052098588
1e-09,0.9895324593170068,1e-09,0,1e-09,4.88026483546218e-06,1e-09,0.5541461133374973
1.00127007643827e-09,0.9892691579713621,1.00127007643827e-09,0,1.00127007643827e-09,4.847655496374995e-06,1.00127007643827e-09,0.5543775251771806
1.002373462209779e-09,0.9890957365443258,1.002373462209779e-09,0,1.002373462209779e-09,4.823640772323323e-06,1.002373462209779e-09,0.5546076762080558
1.003557774091575e-09,0.9889723097890358,1.003557774091575e-09,0,1.003557774091575e-09,4.799535827059745e-06,1.003557774091575e-09,0.5548890588398609
1.005524252526868e-09,0.9888671824319983,1.005524252526868e-09,0,1.005524252526868e-09,4.75967684563976e-06,1.005524252526868e-09,0.5554168777931592
1.007016137428506e-09,0.9888413237937639,1.007016137428506e-09,0,1.007016137428506e-09,4.729650552254549e-06,1.007016137428506e-09,0.5558545785855211
1.008477405361532e-09,0.9888408126810019,1.008477405361532e-09,0,1.008477405361532e-09,4.70003429203528e-06,1.008477405361532e-09,0.5563053046340127
1.010136954371766e-09,0.9888548384796418,1.010136954371766e-09,0,1.010136954371766e-09,4.666566983425151e-06,1.010136954371766e-09,0.5568356829243332
1.012083709207488e-09,0.9888800403453256,1.012083709207488e-09,0,1.012083709207488e-09,4.627315875740881e-06,1.012083709207488e-09,0.5574761363400618
1.014565873703674e-09,0.9889169475956013,1.014565873703674e-09,0,1.014565873703674e-09,4.577280768844808e-06,1.014565873703674e-09,0.5583138507930309
1.017893435670152e-09,0.9889678007789973,1.017893435670152e-09,0,1.017893435670152e-09,4.510360531689301e-06,1.017893435670152e-09,0.5594635130882253
1.02262855497798e-09,0.9890380757458478,1.02262855497798e-09,0,1.02262855497798e-09,4.415884149367571e-06,1.02262855497798e-09,0.5611333120268379
1.030066517262366e-09,0.9891419289462204,1.030066517262366e-09,0,1.030066517262366e-09,4.270509140109495e-06,1.030066517262366e-09,0.5637934223247888
1.043779436737407e-09,0.9893169688752601,1.043779436737407e-09,0,1.043779436737407e-09,4.015994586129744e-06,1.043779436737407e-09,0.56868724003869
1.067533187510289e-09,0.9895865636329205,1.067533187510289e-09,0,1.067533187510289e-09,3.620479874689054e-06,1.067533187510289e-09,0.5768683551968448
1.093930220068942e-09,0.9898491223188549,1.093930220068942e-09,0,1.093930220068942e-09,3.241916454644225e-06,1.093930220068942e-09,0.5853747429049861
1.127348513304793e-09,0.9901390527510113,1.127348513304793e-09,0,1.127348513304793e-09,2.837406760315613e-06,1.127348513304793e-09,0.5952452631527519
1.168294152104116e-09,0.9904443806711895,1.168294152104116e-09,0,1.168294152104116e-09,2.429338962292099e-06,1.168294152104116e-09,0.6061118692984072
1.216554811255237e-09,0.9907496385045415,1.216554811255237e-09,0,1.216554811255237e-09,2.041039100110917e-06,1.216554811255237e-09,0.6174417045619813
1.271472508525028e-09,0.9910416561061274,1.271472508525028e-09,0,1.271472508525028e-09,1.689640882460957e-06,1.271472508525028e-09,0.6287165529603598
1.333143161078991e-09,0.991315815212308,1.333143161078991e-09,0,1.333143161078991e-09,1.379612165177181e-06,1.333143161078991e-09,0.6397004040324792
1.402600284900181e-09,0.9915725558733393,1.402600284900181e-09,0,1.402600284900181e-09,1.108579192922043e-06,1.402600284900181e-09,0.6503633603269019
1.481611738302502e-09,0.991814144278763,1.481611738302502e-09,0,1.481611738302502e-09,8.725953861455143e-07,1.481611738302502e-09,0.6607539455085664
1.571992541471722e-09,0.9920410289381161,1.571992541471722e-09,0,1.571992541471722e-09,6.691674157824665e-07,1.571992541471722e-09,0.6708723784547266
1.678002019584385e-09,0.992257306139806,1.678002019584385e-09,0,1.678002019584385e-09,4.9262825029711e-07,1.678002019584385e-09,0.6809037477796548
1.798313588928162e-09,0.9924551684067542,1.798313588928162e-09,0,1.798313588928162e-09,3.467948674375762e-07,1.798313588928162e-09,0.6904720511149982
1.934639125745493e-09,0.9926353589239381,1.934639125745493e-09,0,1.934639125745493e-09,2.275266921661351e-07,1.934639125745493e-09,0.6995703021453697
2.090914445164671e-09,0.992801046207766,2.090914445164671e-09,0,2.090914445164671e-09,1.295340562586673e-07,2.090914445164671e-09,0.7083156860628754
2.272419435597245e-09,0.9929550044607075,2.272419435597245e-09,0,2.272419435597245e-09,4.865389937153847e-08,2.272419435597245e-09,0.7168198066008952
2.326099426524258e-09,0.9929938267142532,2.326099426524258e-09,0,2.326099426524258e-09,2.990676821051661e-08,2.326099426524258e-09,0.7190336310435375
2.352939421987764e-09,0.9930123353998747,2.352939421987764e-09,0,2.352939421987764e-09,2.119514532303347e-08,2.352939421987764e-09,0.7200960547851808
2.406619412914777e-09,0.9930478701256487,2.406619412914777e-09,0,2.406619412914777e-09,4.843038392002662e-09,2.406619412914777e-09,0.7221476476099313
2.442586578146929e-09,0.9930706983456935,2.442586578146929e-09,0,2.442586578146929e-09,-5.563128807936371e-09,2.442586578146929e-09,0.7234705317693029
2.457091945560609e-09,0.9930797402110563,2.457091945560609e-09,0,2.457091945560609e-09,-9.862171315898702e-09,2.457091945560609e-09,0.7239920934625753
2.486102680387967e-09,0.9930973443457389,2.486102680387967e-09,0,2.486102680387967e-09,-1.742830441889343e-08,2.486102680387967e-09,0.7250182764111454
2.544124150042684e-09,0.9931310671885546,2.544124150042684e-09,0,2.544124150042684e-09,-3.16585965275085e-08,2.544124150042684e-09,0.7270047546199838
2.660167089352118e-09,0.993193471403804,2.660167089352118e-09,0,2.660167089352118e-09,-5.671931466909276e-08,2.660167089352118e-09,0.7307373516313818
2.892252967970986e-09,0.9933020022776713,2.892252967970986e-09,0,2.892252967970986e-09,-9.648557656399124e-08,2.892252967970986e-09,0.7374049408487041
3.269214649537511e-09,0.9934447295543839,3.269214649537511e-09,0,3.269214649537511e-09,-1.414691826589508e-07,3.269214649537511e-09,0.7465195882904159
3.693462279902119e-09,0.9935717254821249,3.693462279902119e-09,0,3.693462279902119e-09,-1.744846132197706e-07,3.693462279902119e-09,0.7549138024612358
4.174914057761892e-09,0.9936886311228783,4.174914057761892e-09,0,4.174914057761892e-09,-1.990171250097429e-07,4.174914057761892e-09,0.7627481142528001
4.744438654877959e-09,0.9938042395848663,4.744438654877959e-09,0,4.744438654877959e-09,-2.178564266221226e-07,4.744438654877959e-09,0.7704006511833265
5.415259557767117e-09,0.9939216010723553,5.415259557767117e-09,0,5.415259557767117e-09,-2.318617433016573e-07,5.415259557767117e-09,0.7778544375822642
6.208817946786682e-09,0.9940451211489268,6.208817946786682e-09,0,6.208817946786682e-09,-2.418021263860708e-07,6.208817946786682e-09,0.7851587513294281
7.153944048788533e-09,0.9941797779667294,7.153944048788533e-09,0,7.153944048788533e-09,-2.481973432619448e-07,7.153944048788533e-09,0.7923720751186595
