/vout X,/vout Y,/I5/PM0/D X,/I5/PM0/D Y
0,1.1998891632128,0,1.252984272078275e-13
1.861670655287675e-12,1.20025030674499,1.861670655287675e-12,3.539811347280501e-08
2.72724024853231e-12,1.200394424502121,2.72724024853231e-12,3.015886070243304e-08
4.458379435021578e-12,1.200637017483952,4.458379435021578e-12,2.154964652797085e-08
7.466379789456037e-12,1.200928601010278,7.466379789456037e-12,1.170818165692963e-08
1.020501652063771e-11,1.201090303209852,1.020501652063771e-11,6.594058340269737e-09
1.23064984099994e-11,1.201168852217559,1.23064984099994e-11,4.303944436835079e-09
1.450988406875282e-11,1.201224701289686,1.450988406875282e-11,2.810399142692248e-09
1.693694855577818e-11,1.201266590569636,1.693694855577818e-11,1.813765977691185e-09
1.976634744512795e-11,1.201299467790722,1.976634744512795e-11,1.158947566731531e-09
2.32098077431592e-11,1.201325736805154,2.32098077431592e-11,7.728142737855809e-10
2.747504779687285e-11,1.201346405832175,2.747504779687285e-11,6.119228260494714e-10
3.291245961177362e-11,1.201362363534059,3.291245961177362e-11,6.300196441720832e-10
3.986621631746519e-11,1.201373264725974,3.986621631746519e-11,7.857155295888632e-10
4.903421876615851e-11,1.201377128991437,4.903421876615851e-11,1.060007631529353e-09
6.162286838336523e-11,1.20136643657413,6.162286838336523e-11,1.496330080836058e-09
7.695896052484804e-11,1.201327579574188,7.695896052484804e-11,2.151029731479096e-09
9.274500801336603e-11,1.201253375275255,9.274500801336603e-11,2.967284026043637e-09
1.103077803985695e-10,1.201114811394626,1.103077803985695e-10,4.299342477975145e-09
1.288066043462447e-10,1.200883413461831,1.288066043462447e-10,6.236014075073475e-09
1.475826675458256e-10,1.200528214328403,1.475826675458256e-10,8.879341143484163e-09
1.647899718850948e-10,1.200065738958211,1.647899718850948e-10,1.199599272412849e-08
1.810407530464376e-10,1.199470070534249,1.810407530464376e-10,1.541434195161717e-08
1.95264749070334e-10,1.198811477314053,1.95264749070334e-10,1.911904694761988e-08
2.151352145264234e-10,1.197671080887822,2.151352145264234e-10,2.533315120296338e-08
2.349069979758791e-10,1.19627460881203,2.349069979758791e-10,3.250812745528966e-08
2.542570748432485e-10,1.194667380236411,2.542570748432485e-10,4.07088671609706e-08
2.719724670368319e-10,1.193012294598933,2.719724670368319e-10,4.941229129847688e-08
2.881947420957913e-10,1.191367680620393,2.881947420957913e-10,5.8494574778265e-08
3.044270247859737e-10,1.189620327070823,3.044270247859737e-10,6.874232602690023e-08
3.217756629201015e-10,1.187657773100752,3.217756629201015e-10,8.116474391337948e-08
3.418691408747081e-10,1.185273891468656,3.418691408747081e-10,9.789948019343092e-08
3.655499388500139e-10,1.182308786662482,3.655499388500139e-10,1.219634675942603e-07
3.863301912324941e-10,1.179546540160608,3.863301912324941e-10,1.485806544622194e-07
4.051514662208173e-10,1.176891299181387,4.051514662208173e-10,1.787687531218397e-07
4.245764935464819e-10,1.173966203812845,4.245764935464819e-10,2.189960779041857e-07
4.439317636479618e-10,1.170836622769891,4.439317636479618e-10,2.752767437257752e-07
4.614122564700017e-10,1.167801786008767,4.614122564700017e-10,3.608365895274922e-07
4.751101168719896e-10,1.165236739380781,4.751101168719896e-10,4.951496153956447e-07
4.861785683269157e-10,1.162977532802727,4.861785683269157e-10,6.944924182013006e-07
4.970405106304745e-10,1.160512153772594,4.970405106304745e-10,9.908794055079221e-07
5.072652631987021e-10,1.157883126667812,5.072652631987021e-10,1.357989421900414e-06
5.172081940185302e-10,1.154971825260812,5.172081940185302e-10,1.754045683349607e-06
5.255271897443502e-10,1.152225188577079,5.255271897443502e-10,2.090227280744819e-06
5.352314225485711e-10,1.148603779687041,5.352314225485711e-10,2.511235353263462e-06
5.441801847576252e-10,1.144807396808776,5.441801847576252e-10,2.945061491197281e-06
5.519756023682867e-10,1.141099504870489,5.519756023682867e-10,3.365033540662788e-06
5.591521736181661e-10,1.137335496622086,5.591521736181661e-10,3.777902998732457e-06
5.662745974190045e-10,1.13328128629819,5.662745974190045e-10,4.188308075903488e-06
5.743969430160728e-10,1.128364600086913,5.743969430160728e-10,4.621511786096175e-06
5.805853890715485e-10,1.124528671641186,5.805853890715485e-10,4.906594064681216e-06
5.855964800868594e-10,1.121467212077355,5.855964800868594e-10,5.105169926560159e-06
5.900093538361462e-10,1.118876120872593,5.900093538361462e-10,5.254779965930783e-06
5.941785497333234e-10,1.116564918189922,5.941785497333234e-10,5.373274450471131e-06
5.986431109013816e-10,1.114267188508103,5.986431109013816e-10,5.474688729433496e-06
6.040496244661618e-10,1.11173964831138,6.040496244661618e-10,5.5622015543369e-06
6.117750816246894e-10,1.108562198214924,6.117750816246894e-10,5.624392204347193e-06
6.174906616182291e-10,1.106477106415067,6.174906616182291e-10,5.62926551297365e-06
6.225236930980084e-10,1.104780068728738,6.225236930980084e-10,5.609298675567664e-06
6.276809059864996e-10,1.10314192777261,6.276809059864996e-10,5.570904564651231e-06
6.332793618913815e-10,1.10145198247017,6.332793618913815e-10,5.514378316651848e-06
6.396934163529459e-10,1.099603588681825,6.396934163529459e-10,5.436684047161517e-06
6.471900630072988e-10,1.097535358089387,6.471900630072988e-10,5.335516148108729e-06
6.560286102621949e-10,1.095195028857676,6.560286102621949e-10,5.209909444857428e-06
6.663358273846072e-10,1.09256835677768,6.663358273846072e-10,5.06245891653855e-06
6.781852716512978e-10,1.089653290261333,6.781852716512978e-10,4.897223700718571e-06
6.92220263481672e-10,1.08631249248451,6.92220263481672e-10,4.709492602962007e-06
7.088341637317468e-10,1.082479793040112,7.088341637317468e-10,4.496439704748279e-06
7.238658727598009e-10,1.079102955400512,7.238658727598009e-10,4.309453141784798e-06
7.386779549839625e-10,1.075842711885432,7.386779549839625e-10,4.127509736570762e-06
7.540167645323801e-10,1.072522588769001,7.540167645323801e-10,3.939193812946697e-06
7.703846151698464e-10,1.069029008383473,7.703846151698464e-10,3.737076722213469e-06
7.885610574423066e-10,1.065194393732756,7.885610574423066e-10,3.510844513256652e-06
8.092461481123115e-10,1.060871188488261,8.092461481123115e-10,3.251650911805138e-06
8.332474608930766e-10,1.055888196785203,8.332474608930766e-10,2.950112949848859e-06
8.59710226169944e-10,1.050412366561624,8.59710226169944e-10,2.618857744398227e-06
8.881091301995911e-10,1.044534474101254,8.881091301995911e-10,2.266620475818955e-06
9.187806496512231e-10,1.038165328245241,9.187806496512231e-10,1.890675836929548e-06
9.52097324704619e-10,1.031208560546156,9.52097324704619e-10,1.487304566470376e-06
9.760486623523095e-10,1.026179604936583,9.760486623523095e-10,1.20045287026404e-06
1e-09,1.021126549387691,1e-09,9.160018352936525e-07
1.003306882188046e-09,1.019989380698634,1.003306882188046e-09,7.563765553214556e-07
1.006187741626151e-09,1.019189107325916,1.006187741626151e-09,7.893165071040587e-07
1.008771780995503e-09,1.01859831116067,1.008771780995503e-09,7.900824825476323e-07
1.01226058460157e-09,1.017899325030562,1.01226058460157e-09,7.686291578603705e-07
1.015067276623941e-09,1.017376339413311,1.015067276623941e-09,7.430304683169404e-07
1.018199304548245e-09,1.016806867040529,1.018199304548245e-09,7.122199416169176e-07
1.022215988167941e-09,1.016083441139094,1.022215988167941e-09,6.727587353291309e-07
1.02552718974435e-09,1.015490594680865,1.02552718974435e-09,6.407763448255376e-07
1.032149592897168e-09,1.014320936286734,1.032149592897168e-09,5.786396976330328e-07
1.045394399202804e-09,1.012012845810374,1.045394399202804e-09,4.565672375257405e-07
1.056851881866961e-09,1.010053222640698,1.056851881866961e-09,3.534923168733587e-07
1.079766847195274e-09,1.006230450314514,1.079766847195274e-09,1.535107558043472e-07
1.108031731492567e-09,1.001670695630319,1.108031731492567e-09,-8.295579439570996e-08
1.11589565596534e-09,1.000430852149836,1.11589565596534e-09,-1.468329767419214e-07
1.117864587534861e-09,1.000122298480539,1.117864587534861e-09,-1.627023337558838e-07
1.118603675408589e-09,1.000006660297036,1.118603675408589e-09,-1.686476098790966e-07
1.118919356321397e-09,0.9999587303747839,1.118919356321397e-09,-2.18663353501185e-07
1.119043539305579e-09,0.9999399721946228,1.119043539305579e-09,-2.196398699994632e-07
1.119291905273943e-09,0.9999023896191767,1.119291905273943e-09,-2.196845327837127e-07
1.119788637210671e-09,0.9998269781536023,1.119788637210671e-09,-2.242559042404116e-07
1.120782101084128e-09,0.9996753684447071,1.120782101084128e-09,-2.332070044081893e-07
1.122769028831041e-09,0.9993701897840911,1.122769028831041e-09,-2.501651028835379e-07
1.126742884324867e-09,0.9987569673071869,1.126742884324867e-09,-2.822443060996963e-07
1.134173073548898e-09,0.9976119250080725,1.134173073548898e-09,-3.39883584651392e-07
1.144677885735581e-09,0.9960059002768046,1.144677885735581e-09,-4.196442034213954e-07
1.161356216093391e-09,0.9934904714595477,1.161356216093391e-09,-5.438996528369355e-07
1.194291979776821e-09,0.9886376672381914,1.194291979776821e-09,-7.807452187536782e-07
1.249834190421066e-09,0.9807599868421423,1.249834190421066e-09,-1.155938015436313e-06
1.310321799307125e-09,0.972566905708156,1.310321799307125e-09,-1.533715285369415e-06
1.375774538521998e-09,0.9640974258336551,1.375774538521998e-09,-1.910789240659795e-06
1.449484849247505e-09,0.9549895545463284,1.449484849247505e-09,-2.300938934368795e-06
1.525777190161017e-09,0.9459863435917519,1.525777190161017e-09,-2.670986500719374e-06
1.610809629290162e-09,0.9364021680186813,1.610809629290162e-09,-3.047866787070153e-06
1.704446361323649e-09,0.9263402135312243,1.704446361323649e-09,-3.424729766280488e-06
1.808979513535608e-09,0.9156565415083462,1.808979513535608e-09,-3.803978734376906e-06
1.927910163051179e-09,0.9041388113129052,1.927910163051179e-09,-4.18901459688213e-06
2.02552718974435e-09,0.8951525550567196,2.02552718974435e-09,-4.472635851528504e-06
2.025777190161017e-09,0.8951300892827031,2.025777190161017e-09,-4.473540334593783e-06
2.026051619725366e-09,0.8951054296058345,2.026051619725366e-09,-4.474302590591576e-06
2.026302862609648e-09,0.8950828550153888,2.026302862609648e-09,-4.474992518293995e-06
2.026534480136223e-09,0.8950620456395083,2.026534480136223e-09,-4.475633242192092e-06
2.026997715189373e-09,0.895020432739473,2.026997715189373e-09,-4.476914525981291e-06
2.027924185295674e-09,0.8949372308200321,2.027924185295674e-09,-4.47947438748093e-06
2.029777125508275e-09,0.8947709228912784,2.029777125508275e-09,-4.484583695353928e-06
2.03232346257937e-09,0.894542591640196,2.03232346257937e-09,-4.491585438215072e-06
2.035225529566207e-09,0.8942826673672357,2.035225529566207e-09,-4.49954202580379e-06
2.038627170210006e-09,0.8939784202627191,2.038627170210006e-09,-4.508839134778027e-06
2.042665282223932e-09,0.8936178413067697,2.042665282223932e-09,-4.519836104966825e-06
2.047460493830927e-09,0.8931904965165257,2.047460493830927e-09,-4.532839245400932e-06
2.053054926064983e-09,0.892693072221618,2.053054926064983e-09,-4.547933344380554e-06
2.05942038701799e-09,0.8921285868713346,2.05942038701799e-09,-4.565008238353042e-06
2.066592102760539e-09,0.8914944996766223,2.066592102760539e-09,-4.584119934806569e-06
2.0747360541196e-09,0.8907768758994848,2.0747360541196e-09,-4.605662187243655e-06
2.084179930108467e-09,0.8899479143638204,2.084179930108467e-09,-4.630431560659581e-06
2.095519117621153e-09,0.8889571066434212,2.095519117621153e-09,-4.659875239212091e-06
2.110081055944542e-09,0.887691868767404,2.110081055944542e-09,-4.697218430923315e-06
2.134606118602553e-09,0.8855789542165089,2.134606118602553e-09,-4.758940560146461e-06
2.154382138832064e-09,0.8838914293739667,2.154382138832064e-09,-4.80767169828943e-06
2.168353626954977e-09,0.8827078610441235,2.168353626954977e-09,-4.841552358905568e-06
2.180199931216288e-09,0.881709871050537,2.180199931216288e-09,-4.869926396772304e-06
2.1908363175511e-09,0.8808181089982263,2.1908363175511e-09,-4.895130583610604e-06
2.200961268694711e-09,0.8799729751717904,2.200961268694711e-09,-4.918887106908985e-06
2.209881890415666e-09,0.8792313773025253,2.209881890415666e-09,-4.939629784035435e-06
2.219214409609967e-09,0.878458535072095,2.219214409609967e-09,-4.961143046064343e-06
2.22871321828174e-09,0.8776750503727189,2.22871321828174e-09,-4.982845389966268e-06
2.238436571608019e-09,0.8768762928958426,2.238436571608019e-09,-5.004859952608124e-06
2.248560822814131e-09,0.876048072192407,2.248560822814131e-09,-5.027568481918355e-06
2.259205965184775e-09,0.8751810324478345,2.259205965184775e-09,-5.051212765279122e-06
2.270546140395137e-09,0.8742616304841486,2.270546140395137e-09,-5.076141470413704e-06
2.282733752073494e-09,0.8732783731814715,2.282733752073494e-09,-5.102638342924741e-06
2.296317027336426e-09,0.8721883936628252,2.296317027336426e-09,-5.131814263447208e-06
2.310884116049454e-09,0.8710262956065866,2.310884116049454e-09,-5.162693234883832e-06
2.326842341690382e-09,0.8697612575596928,2.326842341690382e-09,-5.196041094960807e-06
2.343864252851232e-09,0.8684210787327085,2.343864252851232e-09,-5.231067626017013e-06
2.361373800653092e-09,0.8670523014881808,2.361373800653092e-09,-5.266521652299774e-06
2.378831417040305e-09,0.8656973808388343,2.378831417040305e-09,-5.301299064978834e-06
2.39586781830078e-09,0.8643844980139218,2.39586781830078e-09,-5.334696520244658e-06
2.412329074539368e-09,0.8631246330195874,2.412329074539368e-09,-5.366467244925022e-06
2.428091297594381e-09,0.8619262139624195,2.428091297594381e-09,-5.396436173223589e-06
2.443467451851302e-09,0.8607645819186547,2.443467451851302e-09,-5.425250702998774e-06
2.458216299955157e-09,0.8596571922807897,2.458216299955157e-09,-5.452505336451401e-06
2.472574333258533e-09,0.858585548940305,2.472574333258533e-09,-5.478681222979804e-06
2.486707336657185e-09,0.857536833361302,2.486707336657185e-09,-5.504107900643776e-06
2.500766944088259e-09,0.8564995665968195,2.500766944088259e-09,-5.529073238959918e-06
2.513397067332972e-09,0.8555728419109249,2.513397067332972e-09,-5.551224181631221e-06
2.526027190577683e-09,0.8546509022778934,2.526027190577683e-09,-5.573116200236096e-06
2.542011757845333e-09,0.8534909284540585,2.542011757845333e-09,-5.600455073315706e-06
2.559952591671571e-09,0.8521980264331296,2.559952591671571e-09,-5.630659333640874e-06
2.567043490770638e-09,0.8516896463021628,2.567043490770638e-09,-5.642461366881591e-06
2.573086500865372e-09,0.851257567654683,2.573086500865372e-09,-5.652457860086261e-06
2.579584029382917e-09,0.8507941920609468,2.579584029382917e-09,-5.663143574092858e-06
2.583673944085348e-09,0.8505031444276443,2.583673944085348e-09,-5.669833488496605e-06
2.587097190092638e-09,0.8502599145197498,2.587097190092638e-09,-5.675415625288868e-06
2.590890174158284e-09,0.8499908263688841,2.590890174158284e-09,-5.681585935739012e-06
2.593438660718647e-09,0.8498102730745911,2.593438660718647e-09,-5.685721785560592e-06
2.595496482013608e-09,0.8496646348881536,2.595496482013608e-09,-5.689060403708823e-06
2.597678715516256e-09,0.8495103471595487,2.597678715516256e-09,-5.692598253165004e-06
2.599526444232376e-09,0.8493798392147917,2.599526444232376e-09,-5.695592375994888e-06
2.601128245444495e-09,0.8492668029209599,2.601128245444495e-09,-5.698188308656541e-06
2.602548653212429e-09,0.8491666506734836,2.602548653212429e-09,-5.700491137921991e-06
2.603822527135465e-09,0.8490769002903469,2.603822527135465e-09,-5.702556800651945e-06
2.605005370959057e-09,0.8489936235842619,2.605005370959057e-09,-5.704473808659857e-06
2.606143976630352e-09,0.848913515125145,2.606143976630352e-09,-5.706316169177771e-06
2.607272590792894e-09,0.8488341877281681,2.607272590792894e-09,-5.708166815082451e-06
2.608386987343595e-09,0.8487559176866357,2.608386987343595e-09,-5.709971451734768e-06
2.609575027403172e-09,0.8486725004721403,2.609575027403172e-09,-5.711859423362071e-06
2.610443244092934e-09,0.8486115096872298,2.610443244092934e-09,-5.713182090029026e-06
2.611185583138063e-09,0.8485593733567628,2.611185583138063e-09,-5.714359845090609e-06
2.611945281655191e-09,0.848506048981107,2.611945281655191e-09,-5.715575917836795e-06
2.612702126658985e-09,0.8484529515779422,2.612702126658985e-09,-5.716774691993137e-06
2.613941547743222e-09,0.8483660434786037,2.613941547743222e-09,-5.718727520636733e-06
2.615311461276605e-09,0.8482700404723348,2.615311461276605e-09,-5.720873636372276e-06
2.616691260843139e-09,0.8481734011281598,2.616691260843139e-09,-5.723026236048501e-06
2.618062307680675e-09,0.8480774360774718,2.618062307680675e-09,-5.72516046683e-06
2.619398862765686e-09,0.8479839545329821,2.619398862765686e-09,-5.727241019021995e-06
2.6206934578253e-09,0.847893487247948,2.6206934578253e-09,-5.729261031675224e-06
2.621943465772851e-09,0.8478062273958279,2.621943465772851e-09,-5.731221220692246e-06
2.623144268375067e-09,0.8477225081312336,2.623144268375067e-09,-5.73311960808339e-06
2.624291262653692e-09,0.847642662187741,2.624291262653692e-09,-5.734954872419619e-06
2.625380863408976e-09,0.8475669517068559,2.625380863408976e-09,-5.736727641912007e-06
2.626412109451241e-09,0.8474954551856589,2.626412109451241e-09,-5.738441470111845e-06
2.627389416120379e-09,0.8474278734415345,2.627389416120379e-09,-5.740103406283706e-06
2.628326248642833e-09,0.8473632703147911,2.628326248642833e-09,-5.741722992689074e-06
2.629250083670165e-09,0.8472997057234364,2.629250083670165e-09,-5.743290695498502e-06
2.630210488099029e-09,0.8472336809557527,2.630210488099029e-09,-5.744822677635102e-06
2.63129627373666e-09,0.8471589847708065,2.63129627373666e-09,-5.746427991612773e-06
2.632683233962333e-09,0.8470630153627852,2.632683233962333e-09,-5.748006529992489e-06
2.634388158604021e-09,0.8469429745631415,2.634388158604021e-09,-5.748856609373557e-06
2.636072071716505e-09,0.84682039669553,2.636072071716505e-09,-5.748063232582124e-06
2.637503191586117e-09,0.846711786642769,2.637503191586117e-09,-5.746021891691644e-06
2.638941865673943e-09,0.8465975204531926,2.638941865673943e-09,-5.742833715954635e-06
2.640447465692272e-09,0.8464729380663858,2.640447465692272e-09,-5.739447100969858e-06
2.642048168081053e-09,0.8463396627237645,2.642048168081053e-09,-5.739204174993564e-06
2.643283334144573e-09,0.8462321470082231,2.643283334144573e-09,-5.735304097754694e-06
2.644585180959509e-09,0.8461103229118899,2.644585180959509e-09,-5.728449016972934e-06
2.645797305852169e-09,0.8459826190687925,2.645797305852169e-09,-5.716041601469573e-06
2.64677388980468e-09,0.845870052740562,2.64677388980468e-09,-5.706352087775219e-06
2.647934083091379e-09,0.845736399536959,2.647934083091379e-09,-5.705133407169224e-06
2.649059439826191e-09,0.845613460075849,2.649059439826191e-09,-5.71010232908455e-06
2.650189543144745e-09,0.8454986524720967,2.650189543144745e-09,-5.718764865093977e-06
2.651535388343014e-09,0.8453738143259635,2.651535388343014e-09,-5.733607875951843e-06
2.652955946107308e-09,0.845257057391282,2.652955946107308e-09,-5.755025459606518e-06
2.654268140212498e-09,0.8451669202928037,2.654268140212498e-09,-5.782532244922408e-06
2.655360665440023e-09,0.8451123268332947,2.655360665440023e-09,-5.815757611741278e-06
2.656229210722143e-09,0.8450885520964319,2.656229210722143e-09,-5.850640084847106e-06
2.656990047884075e-09,0.8450821836967162,2.656990047884075e-09,-5.88276933479925e-06
2.657843195218802e-09,0.8450848779415456,2.657843195218802e-09,-5.913382970004057e-06
2.659032836017327e-09,0.8450919393385418,2.659032836017327e-09,-5.945938194027421e-06
2.660110106828562e-09,0.8450927034903322,2.660110106828562e-09,-5.966381542681417e-06
2.661156352214166e-09,0.8450842476056137,2.661156352214166e-09,-5.980309113162483e-06
2.662335517292003e-09,0.8450624134158286,2.662335517292003e-09,-5.990311083523112e-06
2.663637425064172e-09,0.8450234397389511,2.663637425064172e-09,-5.995344187444232e-06
2.665028704210486e-09,0.8449661602907722,2.665028704210486e-09,-5.995234044933084e-06
2.666522106511171e-09,0.8448894448538035,2.666522106511171e-09,-5.990521225687222e-06
2.668145876477457e-09,0.8447918879742043,2.668145876477457e-09,-5.981866099865346e-06
