/vout X,/vout Y,/I5/PM0/D X,/I5/PM0/D Y
0,1.199675846289246,0,8.631102629758996e-16
1.861670655287675e-12,1.200039671703468,1.861670655287675e-12,2.744985477760985e-08
2.721378361024792e-12,1.200183796782472,2.721378361024792e-12,2.332889660124725e-08
4.440793772499026e-12,1.200426376136615,4.440793772499026e-12,1.646398922074485e-08
7.448724905316677e-12,1.200719031471271,7.448724905316677e-12,8.767828044204602e-09
1.01854389705454e-11,1.200880374860287,1.01854389705454e-11,4.830091840683203e-09
1.226917240532657e-11,1.200957802974528,1.226917240532657e-11,3.104475654519001e-09
1.44571073285926e-11,1.201012838392105,1.44571073285926e-11,1.994846839256134e-09
1.686824043648639e-11,1.201054078798556,1.686824043648639e-11,1.271127351456757e-09
1.968225630603244e-11,1.201086451632479,1.968225630603244e-11,8.1519060357464e-10
2.31130784509693e-11,1.201112346571951,2.31130784509693e-11,5.730612899667758e-10
2.736968250093603e-11,1.201132752678582,2.736968250093603e-11,5.13247731274071e-10
3.280598054422113e-11,1.201148548755231,3.280598054422113e-11,6.035922989579681e-10
3.976653376654476e-11,1.201159367403992,3.976653376654476e-11,8.160310878430643e-10
4.89628618601863e-11,1.201163191211933,4.89628618601863e-11,1.148183968431717e-09
6.162146943464967e-11,1.201152344680938,6.162146943464967e-11,1.664073832323307e-09
7.68798126429331e-11,1.201113566477635,7.68798126429331e-11,2.425071601658222e-09
9.262984907945025e-11,1.201039538654501,9.262984907945025e-11,3.375832703253716e-09
1.10193950889894e-10,1.200900867748948,1.10193950889894e-10,4.940813516409866e-09
1.286429808441852e-10,1.200670070722151,1.286429808441852e-10,7.20248109554712e-09
1.474441638374399e-10,1.200314402693938,1.474441638374399e-10,1.030710580131782e-08
1.646573890042985e-10,1.199851628366224,1.646573890042985e-10,1.396949397368277e-08
1.809061682860861e-10,1.199255762005059,1.809061682860861e-10,1.805868021463181e-08
1.951191984021555e-10,1.198597519242049,1.951191984021555e-10,2.238996048588587e-08
2.150665992869213e-10,1.197451988859559,2.150665992869213e-10,2.957452930295505e-08
2.348880752493334e-10,1.196050303134306,2.348880752493334e-10,3.782966080053951e-08
2.542294904008899e-10,1.194441686801139,2.542294904008899e-10,4.71570904991509e-08
2.719547026284823e-10,1.192783558342874,2.719547026284823e-10,5.700267737316421e-08
2.88186643051379e-10,1.191135688411059,2.88186643051379e-10,6.728153495315331e-08
3.044383555283946e-10,1.189383483440638,3.044383555283946e-10,7.897702994098263e-08
3.218253750238369e-10,1.187412803536943,3.218253750238369e-10,9.340895821674663e-08
3.419989682392359e-10,1.185013326658886,3.419989682392359e-10,1.134674959990689e-07
3.655629021956522e-10,1.182052882063843,3.655629021956522e-10,1.435251596131378e-07
3.862137498804314e-10,1.179296134421257,3.862137498804314e-10,1.794955030381526e-07
4.049621746014497e-10,1.176637016537097,4.049621746014497e-10,2.243140507031576e-07
4.242975925932384e-10,1.173705699652439,4.242975925932384e-10,2.89275771904441e-07
4.435610069579195e-10,1.170565575564857,4.435610069579195e-10,3.837527360882408e-07
4.610925315309058e-10,1.167491146309565,4.610925315309058e-10,5.135252812593001e-07
4.74860395517551e-10,1.164876948035007,4.74860395517551e-10,6.76661941523394e-07
4.859600451396475e-10,1.16256168623066,4.859600451396475e-10,8.954779043700821e-07
4.965997982263646e-10,1.160057264461818,4.965997982263646e-10,1.255959005819544e-06
5.055633744882406e-10,1.157635695145426,5.055633744882406e-10,1.741528126052157e-06
5.138966156747503e-10,1.155055159356938,5.138966156747503e-10,2.375169911482019e-06
5.227169191704393e-10,1.151918058687406,5.227169191704393e-10,3.228391211580198e-06
5.255012355770377e-10,1.150835814175537,5.255012355770377e-10,3.527546408255438e-06
5.310698683902344e-10,1.148527820748359,5.310698683902344e-10,4.15854010367169e-06
5.390042672777879e-10,1.144897253333887,5.390042672777879e-10,5.087731631533133e-06
5.46593969578397e-10,1.14103455042524,5.46593969578397e-10,5.959312218021536e-06
5.534464719478349e-10,1.137210956201977,5.534464719478349e-10,6.697887915989939e-06
5.600932705424668e-10,1.133205460519074,5.600932705424668e-10,7.350026815597989e-06
5.673570267378141e-10,1.128548508101672,5.673570267378141e-10,7.974610497490381e-06
5.740574673464472e-10,1.124107310677167,5.740574673464472e-10,8.461726483833517e-06
5.793673352555541e-10,1.120603108739177,5.793673352555541e-10,8.787497119912537e-06
5.838607270888933e-10,1.117736495770129,5.838607270888933e-10,9.023618232050765e-06
5.878759394720582e-10,1.115308269433942,5.878759394720582e-10,9.205634310778726e-06
5.919664762745834e-10,1.113000690870043,5.919664762745834e-10,9.364323233299735e-06
5.966546670946591e-10,1.110581278655788,5.966546670946591e-10,9.514498747950277e-06
6.030628909340198e-10,1.107644949403337,6.030628909340198e-10,9.667609575099215e-06
6.09001905315206e-10,1.105247206626329,6.09001905315206e-10,9.759177244312241e-06
6.140503339623149e-10,1.103399060533747,6.140503339623149e-10,9.802082810908821e-06
6.189460068157499e-10,1.101731765345994,6.189460068157499e-10,9.816512663996006e-06
6.240912765249535e-10,1.10008000786453,6.240912765249535e-10,9.806724168129419e-06
6.298213927023015e-10,1.098334131826811,6.298213927023015e-10,9.770581578052279e-06
6.364191645518136e-10,1.096419045657119,6.364191645518136e-10,9.702573524877898e-06
6.44109710005063e-10,1.094286630228301,6.44109710005063e-10,9.596398532816883e-06
6.532249372770729e-10,1.091866660942324,6.532249372770729e-10,9.444346659203489e-06
6.637560077450938e-10,1.089182827223678,6.637560077450938e-10,9.246060913480983e-06
6.759514314099367e-10,1.0861912211152,6.759514314099367e-10,8.999142607900632e-06
6.906074513426358e-10,1.08272483046795,6.906074513426358e-10,8.690257292198309e-06
7.060247633537711e-10,1.079198308402805,7.060247633537711e-10,8.359187157941071e-06
7.204956328175151e-10,1.07597788835445,7.204956328175151e-10,8.046293790024447e-06
7.35013658621565e-10,1.072816842812305,7.35013658621565e-10,7.731475962741961e-06
7.501561161302572e-10,1.069579411885655,7.501561161302572e-10,7.402291359796336e-06
7.664868039822396e-10,1.066141589847438,7.664868039822396e-10,7.0461279714423e-06
7.846710485572699e-10,1.062363650666168,7.846710485572699e-10,6.647932773287727e-06
8.053373428284777e-10,1.058116601968899,8.053373428284777e-10,6.193377715202115e-06
8.292649960633097e-10,1.053240006222549,8.292649960633097e-10,5.664960153187175e-06
8.553009261557808e-10,1.047960495476252,8.553009261557808e-10,5.088455821619417e-06
8.832457570431806e-10,1.04230257379891,8.832457570431806e-10,4.469027688098609e-06
9.135035350548828e-10,1.036167013397625,9.135035350548828e-10,3.798234681595544e-06
9.464683307261249e-10,1.029456957578866,9.464683307261249e-10,3.067484761182206e-06
9.732341653630626e-10,1.023984609442619,9.732341653630626e-10,2.474320531031044e-06
1e-09,1.018489360004869,1e-09,1.881363074774784e-06
1.003578914476388e-09,1.017297428375461,1.003578914476388e-09,1.716215838226605e-06
1.006733157336472e-09,1.016466880363174,1.006733157336472e-09,1.661100057139022e-06
1.009521905344212e-09,1.015868544368803,1.009521905344212e-09,1.609764961252062e-06
1.01290266175868e-09,1.01522744257349,1.01290266175868e-09,1.546076697342626e-06
1.015791743784212e-09,1.014711265279807,1.015791743784212e-09,1.49143084130525e-06
1.019101261451404e-09,1.014130841614379,1.019101261451404e-09,1.429146198934792e-06
1.022301248514221e-09,1.013573421568793,1.022301248514221e-09,1.369389465870613e-06
1.025501235577038e-09,1.013018359387316,1.025501235577038e-09,1.310102478888504e-06
1.031901209702672e-09,1.011922841982444,1.031901209702672e-09,1.193546135182773e-06
1.04470115795394e-09,1.009761066438652,1.04470115795394e-09,9.638835269678867e-07
1.056269076473933e-09,1.007844352409459,1.056269076473933e-09,7.606212037451145e-07
1.07940491351392e-09,1.004109670816347,1.07940491351392e-09,3.654149631380461e-07
1.093915821084786e-09,1.001829227079652,1.093915821084786e-09,1.246686327713447e-07
1.101178532149967e-09,1.00070462829411,1.101178532149967e-09,6.110478360562252e-09
1.104813519951984e-09,1.000145756870243,1.104813519951984e-09,-5.27659487365588e-08
1.105723630706862e-09,1.000006237068729,1.105723630706862e-09,-6.745981942380015e-08
1.106051095646302e-09,0.9999567125777057,1.106051095646302e-09,-9.383741612782952e-08
1.106162025305827e-09,0.9999399706589759,1.106162025305827e-09,-9.54342893222792e-08
1.106383884624877e-09,0.9999064671729974,1.106383884624877e-09,-9.819164974976013e-08
1.106827603262978e-09,0.9998393860970526,1.106827603262978e-09,-1.053465522330924e-07
1.107715040539179e-09,0.9997049981580911,1.107715040539179e-09,-1.196801858224385e-07
1.109489915091581e-09,0.9994357449385673,1.109489915091581e-09,-1.481973765388336e-07
1.113039664196386e-09,0.9988971308480722,1.113039664196386e-09,-2.048482613655742e-07
1.120139162405995e-09,0.9978243701321053,1.120139162405995e-09,-3.170300294111715e-07
1.133569053989173e-09,0.9958173853619212,1.133569053989173e-09,-5.258158190927444e-07
1.156347083908196e-09,0.9924793236955544,1.156347083908196e-09,-8.704956007014279e-07
1.198307817152114e-09,0.9865261722918817,1.198307817152114e-09,-1.477129827617894e-06
1.254416161720059e-09,0.9789160076354936,1.254416161720059e-09,-2.237463149626863e-06
1.31474289627929e-09,0.9711249159777983,1.31474289627929e-09,-2.998314605610631e-06
1.38098823646876e-09,0.9629758934349371,1.38098823646876e-09,-3.775202544837742e-06
1.453369736231232e-09,0.9544974344358396,1.453369736231232e-09,-4.563096560150226e-06
1.525751235993705e-09,0.9464128745521539,1.525751235993705e-09,-5.295159166084234e-06
1.610639055587489e-09,0.9373765888747411,1.610639055587489e-09,-6.091361124981958e-06
1.704607781496158e-09,0.9278761883818828,1.704607781496158e-09,-6.903611302805426e-06
1.809818760781469e-09,0.917803517186666,1.809818760781469e-09,-7.73726968205627e-06
1.929774424048867e-09,0.9069758524739421,1.929774424048867e-09,-8.602200469190813e-06
2.025501235577038e-09,0.898797651476149,2.025501235577038e-09,-9.234335278320928e-06
2.025751235993705e-09,0.8987768338757269,2.025751235993705e-09,-9.235969664994204e-06
2.026025665557904e-09,0.8987539837501506,2.026025665557904e-09,-9.2377101865596e-06
2.026276908441933e-09,0.8987330661673817,2.026276908441933e-09,-9.239302697068939e-06
2.026508525968281e-09,0.8987137846782224,2.026508525968281e-09,-9.240771703432713e-06
2.026971761020976e-09,0.8986752283760645,2.026971761020976e-09,-9.243708882161763e-06
2.027898231126367e-09,0.8985981423691345,2.027898231126367e-09,-9.249579733774718e-06
2.029751171337149e-09,0.8984440739103599,2.029751171337149e-09,-9.261307507839245e-06
2.03229750844176e-09,0.8982325729359633,2.03229750844176e-09,-9.277395136095165e-06
2.035199575485271e-09,0.8979918394660482,2.035199575485271e-09,-9.295691236157223e-06
2.038601216195064e-09,0.8977100948489061,2.038601216195064e-09,-9.317084629221426e-06
2.04263932820532e-09,0.8973762371633741,2.04263932820532e-09,-9.342407803103792e-06
2.047434539829992e-09,0.8969806338284692,2.047434539829992e-09,-9.372375885325061e-06
2.053028972056514e-09,0.8965202547512592,2.053028972056514e-09,-9.407198015082709e-06
2.059394433002037e-09,0.8959979374636236,2.059394433002037e-09,-9.446636011084013e-06
2.066566148763723e-09,0.8954113810742599,2.066566148763723e-09,-9.490837058681262e-06
2.074710100166388e-09,0.8947477590460305,2.074710100166388e-09,-9.540734233498667e-06
2.084153976216575e-09,0.8939814547268166,2.084153976216575e-09,-9.598205170415156e-06
2.095493163805415e-09,0.8930659287106743,2.095493163805415e-09,-9.666661230076698e-06
2.110055102249376e-09,0.891897446157433,2.110055102249376e-09,-9.753705767475066e-06
2.134580165546989e-09,0.889947676242046,2.134580165546989e-09,-9.898138989174703e-06
2.154356185520648e-09,0.8883918716224266,2.154356185520648e-09,-1.001266310340737e-05
2.168327673478845e-09,0.8873014486970967,2.168327673478845e-09,-1.0092547229276e-05
2.180173977671508e-09,0.8863824912893052,2.180173977671508e-09,-1.015962435711992e-05
2.190810363975168e-09,0.8855617321968402,2.190810363975168e-09,-1.021934424519919e-05
2.200935315013033e-09,0.8847842235323964,2.200935315013033e-09,-1.027575250729209e-05
2.209855936746849e-09,0.8841022356172664,2.209855936746849e-09,-1.032509907443639e-05
2.219188455946811e-09,0.8833917838242439,2.219188455946811e-09,-1.037637435300335e-05
2.2286872646278e-09,0.8826718300471055,2.2286872646278e-09,-1.042819939529796e-05
2.238410617973306e-09,0.8819381346522078,2.238410617973306e-09,-1.048087289165133e-05
2.248534869204084e-09,0.8811776892892217,2.248534869204084e-09,-1.053531703816356e-05
2.259180011607807e-09,0.8803819447546811,2.259180011607807e-09,-1.059212534496654e-05
2.270520186856803e-09,0.8795385287859242,2.270520186856803e-09,-1.065215503118986e-05
2.282707798606029e-09,0.8786369755194005,2.282707798606029e-09,-1.071611585230642e-05
2.296291073915464e-09,0.8776381027502649,2.296291073915464e-09,-1.078673180620556e-05
2.310858162704878e-09,0.8765737616241662,2.310858162704878e-09,-1.086168819679899e-05
2.326816388413335e-09,0.8754158734584178,2.326816388413335e-09,-1.094289574920299e-05
2.343838299616205e-09,0.8741900474376598,2.343838299616205e-09,-1.10284860632291e-05
2.361347847429355e-09,0.8729389583222664,2.361347847429355e-09,-1.111543584104569e-05
2.378805463801582e-09,0.8717014298599745,2.378805463801582e-09,-1.12010418051742e-05
2.395841865033647e-09,0.8705031508916077,2.395841865033647e-09,-1.12835528621388e-05
2.412303121239958e-09,0.8693540552220744,2.412303121239958e-09,-1.136232672722591e-05
2.428065344262081e-09,0.8682617268259007,2.428065344262081e-09,-1.14368912988508e-05
2.443441498489749e-09,0.8672036043456753,2.443441498489749e-09,-1.150882597562218e-05
2.458190346569513e-09,0.8661955115162686,2.458190346569513e-09,-1.157708985028351e-05
2.47254837985503e-09,0.8652205376609822,2.47254837985503e-09,-1.164286109069773e-05
2.486681383245703e-09,0.864266974590246,2.486681383245703e-09,-1.170695050579789e-05
2.50074099067664e-09,0.8633243586623319,2.50074099067664e-09,-1.177007362382322e-05
2.513371113543506e-09,0.8624826502652777,2.513371113543506e-09,-1.182624598378104e-05
2.526001236410371e-09,0.8616457119726297,2.526001236410371e-09,-1.188191912393036e-05
2.541985803695462e-09,0.8605932864456928,2.541985803695462e-09,-1.195167050346445e-05
2.559926637595288e-09,0.8594210459476651,2.559926637595288e-09,-1.20290281536213e-05
2.56701753648994e-09,0.858960338950712,2.56701753648994e-09,-1.205933535670452e-05
2.57306054604911e-09,0.8585688802997122,2.57306054604911e-09,-1.208504563921866e-05
2.57955807590991e-09,0.8581491707029256,2.57955807590991e-09,-1.211256845998672e-05
2.583647989121017e-09,0.8578856036842994,2.583647989121017e-09,-1.212982800790953e-05
2.587071233277483e-09,0.8576653719816646,2.587071233277483e-09,-1.214423846390495e-05
2.590864218685857e-09,0.8574217627917206,2.590864218685857e-09,-1.216016796271593e-05
2.593412711565608e-09,0.8572583263273973,2.593412711565608e-09,-1.217084732070681e-05
2.595470532819528e-09,0.8571265087552392,2.595470532819528e-09,-1.217945848496821e-05
2.597652765673141e-09,0.8569868761302684,2.597652765673141e-09,-1.218857590025215e-05
2.599500493712032e-09,0.8568687758343637,2.599500493712032e-09,-1.219628340368166e-05
2.601102294216351e-09,0.8567664949469477,2.601102294216351e-09,-1.220295560689598e-05
2.602522701386778e-09,0.8566758794446768,2.602522701386778e-09,-1.220886420547517e-05
2.603796574893135e-09,0.8565946813308899,2.603796574893135e-09,-1.221415579610552e-05
2.604979418487582e-09,0.8565193450559838,2.604979418487582e-09,-1.221906147378284e-05
2.60611802412923e-09,0.8564468791920941,2.60611802412923e-09,-1.222377502979147e-05
2.60724663845823e-09,0.8563751276982999,2.60724663845823e-09,-1.222845340096588e-05
2.608361024794124e-09,0.8563043376454068,2.608361024794124e-09,-1.223304926062707e-05
2.60954908900699e-09,0.8562288891359354,2.60954908900699e-09,-1.223792015386599e-05
2.61041729389907e-09,0.8561737193774427,2.61041729389907e-09,-1.224144438155102e-05
2.611159620022176e-09,0.8561265598045129,2.611159620022176e-09,-1.224448751183206e-05
2.611919299329427e-09,0.8560783297427095,2.611919299329427e-09,-1.224760555606416e-05
2.612676147740578e-09,0.856030306400665,2.612676147740578e-09,-1.225070021061142e-05
2.613915573663147e-09,0.8559517072239692,2.613915573663147e-09,-1.225575525819403e-05
2.615285491079293e-09,0.8558648865925642,2.615285491079293e-09,-1.226132687285089e-05
2.616665292905671e-09,0.8557774943539178,2.616665292905671e-09,-1.226692501717271e-05
2.618036340392427e-09,0.8556907165261471,2.618036340392427e-09,-1.227247619706978e-05
2.619372895483293e-09,0.8556061903010185,2.619372895483293e-09,-1.227787825820389e-05
2.62066749040975e-09,0.8555243968964074,2.62066749040975e-09,-1.228310277449591e-05
2.621917498256386e-09,0.8554455122920378,2.621917498256386e-09,-1.228814052038836e-05
2.623118300861171e-09,0.8553698390642821,2.623118300861171e-09,-1.229297420420523e-05
2.624265295217344e-09,0.8552976794447339,2.624265295217344e-09,-1.229758676625633e-05
2.625354896080758e-09,0.855229271869928,2.625354896080758e-09,-1.230196533360601e-05
2.626386142206309e-09,0.8551646886924192,2.626386142206309e-09,-1.230610684301274e-05
2.627363448850613e-09,0.8551036603352805,2.627363448850613e-09,-1.231002674540987e-05
2.628300281142697e-09,0.8550452887567278,2.628300281142697e-09,-1.231373723659798e-05
2.629224122377889e-09,0.8549878925506891,2.629224122377889e-09,-1.231740318729442e-05
2.630184516925826e-09,0.8549283228065714,2.630184516925826e-09,-1.232112708126656e-05
2.631270295074477e-09,0.8548609014595242,2.631270295074477e-09,-1.232519809706564e-05
2.632657275116378e-09,0.8547741722303247,2.632657275116378e-09,-1.233013917984306e-05
2.634361918844993e-09,0.8546654074480651,2.634361918844993e-09,-1.233574091356443e-05
2.636045779223593e-09,0.8545538214637094,2.636045779223593e-09,-1.234077095467035e-05
2.637476916014711e-09,0.854454451018438,2.637476916014711e-09,-1.234485427986718e-05
2.638915564551828e-09,0.8543494509431754,2.638915564551828e-09,-1.2349135706003e-05
2.640421143059239e-09,0.8542345136964675,2.640421143059239e-09,-1.235462091998244e-05
2.642021813737064e-09,0.8541118543733839,2.642021813737064e-09,-1.236353873572756e-05
2.6432570722853e-09,0.854012551982601,2.6432570722853e-09,-1.236900127265123e-05
2.644559908240063e-09,0.8538991573448689,2.644559908240063e-09,-1.237457455841399e-05
2.645771051693903e-09,0.8537791425395823,2.645771051693903e-09,-1.237827621399409e-05
2.646747496476914e-09,0.8536726421331482,2.646747496476914e-09,-1.238345428094146e-05
2.647907794609923e-09,0.8535468306555978,2.647907794609923e-09,-1.239768142506333e-05
2.649032968358638e-09,0.8534324744564238,2.649032968358638e-09,-1.241594942093295e-05
2.650162848826329e-09,0.8533271149016934,2.650162848826329e-09,-1.243665213657993e-05
2.651508554887273e-09,0.8532143048628972,2.651508554887273e-09,-1.246381973769318e-05
2.652929071339524e-09,0.8531108957445317,2.652929071339524e-09,-1.249521251757418e-05
2.654241302996249e-09,0.8530335627579276,2.654241302996249e-09,-1.252746417630345e-05
2.655333864034735e-09,0.8529903420957842,2.655333864034735e-09,-1.255838609791533e-05
2.656203312790563e-09,0.8529760747735156,2.656203312790563e-09,-1.258599795799852e-05
2.656963799760072e-09,0.8529783265510448,2.656963799760072e-09,-1.26087959607076e-05
2.65781475681697e-09,0.852990394874688,2.65781475681697e-09,-1.262854145678778e-05
2.658996929689586e-09,0.8530091930855636,2.658996929689586e-09,-1.264697577023434e-05
2.660072807742166e-09,0.8530191516924898,2.660072807742166e-09,-1.265656653775864e-05
2.661119155812778e-09,0.8530182820341803,2.661119155812778e-09,-1.266151671007089e-05
2.662297501860179e-09,0.8530037471556341,2.662297501860179e-09,-1.26632949961108e-05
2.663598531632642e-09,0.8529717069055466,2.663598531632642e-09,-1.26615904205335e-05
2.664989031139252e-09,0.8529209878710857,2.664989031139252e-09,-1.265677808194534e-05
